
T3DEC 000:387 SEGGER J-Link V4.96d Log File (0001ms, 0280ms total)
T3DEC 000:387 DLL Compiled: Jan 29 2015 11:45:37 (0001ms, 0280ms total)
T3DEC 000:387 Logging started @ 2021-05-07 13:51 (0001ms, 0280ms total)
T3DEC 000:388 JLINK_SetWarnOutHandler(...) (0000ms, 0280ms total)
T3DEC 000:388 JLINK_OpenEx(...)
Firmware: J-Link ARM V8 compiled Nov 28 2014 13:44:46
Hardware: V8.00
Feature(s): RDI,FlashDL,FlashBP,JFlash,GDB  returns O.K. (0268ms, 0548ms total)
T3DEC 000:656 JLINK_SetErrorOutHandler(...) (0000ms, 0548ms total)
T3DEC 000:656 JLINK_ExecCommand("ProjectFile = "C:\Users\Administrator\Desktop\新建文件夹 (3)\搬运小车5.5\Project\JLinkSettings.ini"", ...)Device "UNSPECIFIED" selected.  returns 0x00 (0022ms, 0570ms total)
T3DEC 000:692 JLINK_ExecCommand("Device = STM32F427IIHx", ...)Device "UNSPECIFIED" selected.  returns 0x00 (0011ms, 0581ms total)
T3DEC 000:703 JLINK_ExecCommand("DisableConnectionTimeout", ...)  returns 0x01 (0000ms, 0581ms total)
T3DEC 000:703 JLINK_GetHardwareVersion()  returns 0x13880 (0000ms, 0581ms total)
T3DEC 000:703 JLINK_GetDLLVersion()  returns 49604 (0000ms, 0581ms total)
T3DEC 000:703 JLINK_GetFirmwareString(...) (0000ms, 0581ms total)
T3DEC 000:744 JLINK_GetDLLVersion()  returns 49604 (0000ms, 0581ms total)
T3DEC 000:744 JLINK_GetCompileDateTime() (0000ms, 0581ms total)
T3DEC 000:753 JLINK_GetFirmwareString(...) (0000ms, 0581ms total)
T3DEC 000:759 JLINK_GetHardwareVersion()  returns 0x13880 (0000ms, 0581ms total)
T3DEC 000:784 JLINK_TIF_Select(JLINKARM_TIF_SWD)  returns 0x00 (0002ms, 0583ms total)
T3DEC 000:786 JLINK_SetSpeed(5000) (0001ms, 0584ms total)
T3DEC 000:787 JLINK_GetId() >0x108 TIF>Found SWD-DP with ID 0x2BA01477 >0x0D TIF> >0x21 TIF> >0x0D TIF> >0x28 TIF> >0x0D TIF> >0x28 TIF> >0x0D TIF> >0x21 TIF> >0x0D TIF> >0x28 TIF> >0x0D TIF> >0x21 TIF> >0x0D TIF> >0x21 TIF> >0x0D TIF> >0x21 TIF> >0x0D TIF> >0x21 TIF> >0x0D TIF> >0x28 TIF> >0x0D TIF> >0x28 TIF> >0x0D TIF> >0x21 TIF> >0x0D TIF> >0x28 TIF> >0x0D TIF> >0x28 TIF> >0x0D TIF> >0x28 TIF> >0x0D TIF> >0x21 TIF> >0x0D TIF> >0x21 TIF> >0x0D TIF> >0x28 TIF> >0x0D TIF> >0x21 TIF> >0x0D TIF>
 >0x21 TIF>Found Cortex-M4 r0p1, Little endian. -- CPU_WriteMem(4 bytes @ 0xE0002000) -- CPU_ReadMem(4 bytes @ 0xE000EDF0) -- CPU_WriteMem(4 bytes @ 0xE000EDF0) -- CPU_ReadMem(4 bytes @ 0xE0002000)FPUnit: 6 code (BP) slots and 2 literal slots -- CPU_ReadMem(4 bytes @ 0xE000EDFC) -- CPU_WriteMem(4 bytes @ 0xE000EDFC) -- CPU_ReadMem(4 bytes @ 0xE0001000) -- CPU_WriteMem(4 bytes @ 0xE0001000) -- CPU_ReadMem(4 bytes @ 0xE000ED88) -- CPU_WriteMem(4 bytes @ 0xE000ED88) -- CPU_ReadMem(4 bytes @ 0xE000ED88)
 -- CPU_WriteMem(4 bytes @ 0xE000ED88) -- CPU_ReadMem(4 bytes @ 0xE00FF010)TPIU fitted. -- CPU_ReadMem(4 bytes @ 0xE00FF014)ETM fitted. -- CPU_ReadMem(4 bytes @ 0xE00FF018) >0x0D TIF> >0x21 TIF>  returns 0x2BA01477 (0070ms, 0654ms total)
T3DEC 000:857 JLINK_GetDLLVersion()  returns 49604 (0000ms, 0654ms total)
T3DEC 000:857 JLINK_CORE_GetFound()  returns 0xE0000FF (0000ms, 0654ms total)
T3DEC 000:857 JLINK_GetDebugInfo(0x100) -- Value=0xE00FF003  returns 0x00 (0000ms, 0654ms total)
T3DEC 000:863 JLINK_ReadMem (0xE00FF000, 0x0020 Bytes, ...) -- CPU is running -- CPU_ReadMem(32 bytes @ 0xE00FF000) - Data: 03 F0 F0 FF 03 20 F0 FF 03 30 F0 FF 03 10 F0 FF ...  returns 0x00 (0001ms, 0655ms total)
T3DEC 000:864 JLINK_ReadMem (0xE000EFF0, 0x0010 Bytes, ...) -- CPU is running -- CPU_ReadMem(16 bytes @ 0xE000EFF0) - Data: 0D 00 00 00 E0 00 00 00 05 00 00 00 B1 00 00 00  returns 0x00 (0000ms, 0655ms total)
T3DEC 000:865 JLINK_ReadMem (0xE000EFD0, 0x0020 Bytes, ...) -- CPU is running -- CPU_ReadMem(32 bytes @ 0xE000EFD0) - Data: 04 00 00 00 00 00 00 00 00 00 00 00 00 00 00 00 ...  returns 0x00 (0001ms, 0656ms total)
T3DEC 000:866 JLINK_ReadMem (0xE0001FF0, 0x0010 Bytes, ...) -- CPU is running -- CPU_ReadMem(16 bytes @ 0xE0001FF0) - Data: 0D 00 00 00 E0 00 00 00 05 00 00 00 B1 00 00 00  returns 0x00 (0001ms, 0657ms total)
T3DEC 000:867 JLINK_ReadMem (0xE0001FD0, 0x0020 Bytes, ...) -- CPU is running -- CPU_ReadMem(32 bytes @ 0xE0001FD0) - Data: 04 00 00 00 00 00 00 00 00 00 00 00 00 00 00 00 ...  returns 0x00 (0001ms, 0658ms total)
T3DEC 000:868 JLINK_ReadMem (0xE0002FF0, 0x0010 Bytes, ...) -- CPU is running -- CPU_ReadMem(16 bytes @ 0xE0002FF0) - Data: 0D 00 00 00 E0 00 00 00 05 00 00 00 B1 00 00 00  returns 0x00 (0001ms, 0659ms total)
T3DEC 000:869 JLINK_ReadMem (0xE0002FD0, 0x0020 Bytes, ...) -- CPU is running -- CPU_ReadMem(32 bytes @ 0xE0002FD0) - Data: 04 00 00 00 00 00 00 00 00 00 00 00 00 00 00 00 ...  returns 0x00 (0001ms, 0660ms total)
T3DEC 000:870 JLINK_ReadMem (0xE0000FF0, 0x0010 Bytes, ...) -- CPU is running -- CPU_ReadMem(16 bytes @ 0xE0000FF0) - Data: 0D 00 00 00 E0 00 00 00 05 00 00 00 B1 00 00 00  returns 0x00 (0001ms, 0661ms total)
T3DEC 000:871 JLINK_ReadMem (0xE0000FD0, 0x0020 Bytes, ...) -- CPU is running -- CPU_ReadMem(32 bytes @ 0xE0000FD0) - Data: 04 00 00 00 00 00 00 00 00 00 00 00 00 00 00 00 ...  returns 0x00 (0001ms, 0662ms total)
T3DEC 000:872 JLINK_ReadMem (0xE0040FF0, 0x0010 Bytes, ...) -- CPU is running -- CPU_ReadMem(16 bytes @ 0xE0040FF0) - Data: 0D 00 00 00 90 00 00 00 05 00 00 00 B1 00 00 00  returns 0x00 (0001ms, 0663ms total)
T3DEC 000:873 JLINK_ReadMem (0xE0040FD0, 0x0020 Bytes, ...) -- CPU is running -- CPU_ReadMem(32 bytes @ 0xE0040FD0) - Data: 04 00 00 00 00 00 00 00 00 00 00 00 00 00 00 00 ...  returns 0x00 (0001ms, 0664ms total)
T3DEC 000:874 JLINK_ReadMem (0xE0041FF0, 0x0010 Bytes, ...) -- CPU is running -- CPU_ReadMem(16 bytes @ 0xE0041FF0) - Data: 0D 00 00 00 90 00 00 00 05 00 00 00 B1 00 00 00  returns 0x00 (0001ms, 0665ms total)
T3DEC 000:875 JLINK_ReadMem (0xE0041FD0, 0x0020 Bytes, ...) -- CPU is running -- CPU_ReadMem(32 bytes @ 0xE0041FD0) - Data: 04 00 00 00 00 00 00 00 00 00 00 00 00 00 00 00 ...  returns 0x00 (0001ms, 0666ms total)
T3DEC 000:876 JLINK_ReadMemU32(0xE000EF40, 0x0001 Items, ...) -- CPU is running -- CPU_ReadMem(4 bytes @ 0xE000EF40) - Data: 21 00 11 10  returns 0x01 (0000ms, 0666ms total)
T3DEC 000:876 JLINK_ReadMemU32(0xE000EF44, 0x0001 Items, ...) -- CPU is running -- CPU_ReadMem(4 bytes @ 0xE000EF44) - Data: 11 00 00 11  returns 0x01 (0001ms, 0667ms total)
T3DEC 000:877 JLINK_ReadMemU32(0xE000ED00, 0x0001 Items, ...) -- CPU is running -- CPU_ReadMem(4 bytes @ 0xE000ED00) - Data: 41 C2 0F 41  returns 0x01 (0001ms, 0668ms total)
T3DEC 000:878 JLINK_SetResetType(JLINKARM_RESET_TYPE_NORMAL)  returns JLINKARM_RESET_TYPE_NORMAL (0000ms, 0668ms total)
T3DEC 000:878 JLINK_Reset() -- CPU is running -- CPU_WriteMem(4 bytes @ 0xE000EDF0) -- CPU is running -- CPU_WriteMem(4 bytes @ 0xE000EDFC) >0x35 TIF> -- CPU is running -- CPU_WriteMem(4 bytes @ 0xE000ED0C) -- CPU is running -- CPU_ReadMem(4 bytes @ 0xE000EDF0) -- CPU is running -- CPU_ReadMem(4 bytes @ 0xE000EDF0) -- CPU is running -- CPU_WriteMem(4 bytes @ 0xE000EDF0) -- CPU is running -- CPU_WriteMem(4 bytes @ 0xE000EDFC) -- CPU is running -- CPU_ReadMem(4 bytes @ 0xE000EDF0)
 -- CPU_WriteMem(4 bytes @ 0xE0002000) -- CPU_ReadMem(4 bytes @ 0xE000EDFC) -- CPU_ReadMem(4 bytes @ 0xE0001000) (0019ms, 0687ms total)
T3DEC 000:897 JLINK_Halt()  returns 0x00 (0000ms, 0687ms total)
T3DEC 000:897 JLINK_IsHalted()  returns TRUE (0000ms, 0687ms total)
T3DEC 000:897 JLINK_ReadMemU32(0xE000EDF0, 0x0001 Items, ...) -- CPU_ReadMem(4 bytes @ 0xE000EDF0) - Data: 03 00 03 00  returns 0x01 (0001ms, 0688ms total)
T3DEC 000:898 JLINK_WriteU32(0xE000EDF0, 0xA05F0003) -- CPU_WriteMem(4 bytes @ 0xE000EDF0)  returns 0x00 (0001ms, 0689ms total)
T3DEC 000:899 JLINK_WriteU32(0xE000EDFC, 0x01000000) -- CPU_WriteMem(4 bytes @ 0xE000EDFC)  returns 0x00 (0001ms, 0690ms total)
T3DEC 000:929 JLINK_GetHWStatus(...)  returns 0x00 (0001ms, 0691ms total)
T3DEC 000:951 JLINK_GetNumBPUnits(Type = 0xFFFFFF00)  returns 0x06 (0000ms, 0691ms total)
T3DEC 000:951 JLINK_GetNumBPUnits(Type = 0xF0)  returns 0x2000 (0000ms, 0691ms total)
T3DEC 000:951 JLINK_GetNumWPUnits()  returns 0x04 (0000ms, 0691ms total)
T3DEC 000:969 JLINK_GetSpeed()  returns 0xFA0 (0000ms, 0691ms total)
T3DEC 000:981 JLINK_ReadMemU32(0xE000E004, 0x0001 Items, ...) -- CPU_ReadMem(4 bytes @ 0xE000E004) - Data: 02 00 00 00  returns 0x01 (0001ms, 0692ms total)
T3DEC 000:982 JLINK_ReadMemU32(0xE000E004, 0x0001 Items, ...) -- CPU_ReadMem(4 bytes @ 0xE000E004) - Data: 02 00 00 00  returns 0x01 (0001ms, 0693ms total)
T3DEC 000:983 JLINK_WriteMem(0xE0001000, 0x001C Bytes, ...) - Data: 01 00 00 00 00 00 00 00 00 00 00 00 00 00 00 00 ... -- CPU_WriteMem(28 bytes @ 0xE0001000)  returns 0x1C (0001ms, 0694ms total)
T3DEC 000:984 JLINK_ReadMem (0xE0001000, 0x001C Bytes, ...) -- CPU_ReadMem(28 bytes @ 0xE0001000) - Data: 01 00 00 40 00 00 00 00 00 00 00 00 00 00 00 00 ...  returns 0x00 (0002ms, 0696ms total)
T3DEC 000:986 JLINK_Halt()  returns 0x00 (0000ms, 0696ms total)
T3DEC 000:986 JLINK_IsHalted()  returns TRUE (0000ms, 0696ms total)
T3DEC 000:992 JLINK_WriteMem(0x20000000, 0x0198 Bytes, ...) - Data: 00 BE 0A E0 0D 78 2D 06 68 40 08 24 40 00 00 D3 ... -- CPU_WriteMem(408 bytes @ 0x20000000)  returns 0x198 (0004ms, 0700ms total)
T3DEC 000:996 JLINK_WriteReg(R0, 0x08000000)  returns 0x00 (0000ms, 0700ms total)
T3DEC 000:996 JLINK_WriteReg(R1, 0x00B71B00)  returns 0x00 (0000ms, 0700ms total)
T3DEC 000:996 JLINK_WriteReg(R2, 0x00000001)  returns 0x00 (0000ms, 0700ms total)
T3DEC 000:996 JLINK_WriteReg(R3, 0x00000000)  returns 0x00 (0000ms, 0700ms total)
T3DEC 000:996 JLINK_WriteReg(R4, 0x00000000)  returns 0x00 (0000ms, 0700ms total)
T3DEC 000:996 JLINK_WriteReg(R5, 0x00000000)  returns 0x00 (0000ms, 0700ms total)
T3DEC 000:996 JLINK_WriteReg(R6, 0x00000000)  returns 0x00 (0001ms, 0701ms total)
T3DEC 000:997 JLINK_WriteReg(R7, 0x00000000)  returns 0x00 (0000ms, 0701ms total)
T3DEC 000:997 JLINK_WriteReg(R8, 0x00000000)  returns 0x00 (0000ms, 0701ms total)
T3DEC 000:997 JLINK_WriteReg(R9, 0x20000194)  returns 0x00 (0000ms, 0701ms total)
T3DEC 000:997 JLINK_WriteReg(R10, 0x00000000)  returns 0x00 (0000ms, 0701ms total)
T3DEC 000:997 JLINK_WriteReg(R11, 0x00000000)  returns 0x00 (0000ms, 0701ms total)
T3DEC 000:997 JLINK_WriteReg(R12, 0x00000000)  returns 0x00 (0000ms, 0701ms total)
T3DEC 000:997 JLINK_WriteReg(R13 (SP), 0x20000800)  returns 0x00 (0000ms, 0701ms total)
T3DEC 000:997 JLINK_WriteReg(R14, 0x20000001)  returns 0x00 (0000ms, 0701ms total)
T3DEC 000:997 JLINK_WriteReg(R15 (PC), 0x2000005E)  returns 0x00 (0000ms, 0701ms total)
T3DEC 000:997 JLINK_WriteReg(XPSR, 0x01000000)  returns 0x00 (0000ms, 0701ms total)
T3DEC 000:997 JLINK_WriteReg(MSP, 0x20000800)  returns 0x00 (0000ms, 0701ms total)
T3DEC 000:997 JLINK_WriteReg(PSP, 0x20000800)  returns 0x00 (0000ms, 0701ms total)
T3DEC 000:997 JLINK_WriteReg(CFBP, 0x00000000)  returns 0x00 (0000ms, 0701ms total)
T3DEC 000:997 JLINK_SetBPEx(Addr = 0x20000000, Type = 0xFFFFFFF2) -- CPU_ReadMem(4 bytes @ 0x20000000) -- CPU_WriteMem(4 bytes @ 0x20000000) -- CPU_ReadMem(4 bytes @ 0x20000000) -- CPU_WriteMem(4 bytes @ 0x20000000) -- CPU_ReadMem(2 bytes @ 0x20000000)  returns 0x00000001 (0005ms, 0706ms total)
T3DEC 001:002 JLINK_Go() -- CPU_WriteMem(2 bytes @ 0x20000000) -- CPU_WriteMem(4 bytes @ 0xE0002008) -- CPU_WriteMem(4 bytes @ 0xE000200C) -- CPU_WriteMem(4 bytes @ 0xE0002010) -- CPU_WriteMem(4 bytes @ 0xE0002014) -- CPU_WriteMem(4 bytes @ 0xE0002018) -- CPU_WriteMem(4 bytes @ 0xE000201C) -- CPU_WriteMem(4 bytes @ 0xE0001004) (0006ms, 0712ms total)
T3DEC 001:008 JLINK_IsHalted() -- CPU_ReadMem(2 bytes @ 0x20000000)  returns TRUE (0004ms, 0716ms total)
T3DEC 001:012 JLINK_ReadReg(R15 (PC))  returns 0x20000000 (0000ms, 0712ms total)
T3DEC 001:012 JLINK_ClrBPEx(BPHandle = 0x00000001)  returns 0x00 (0000ms, 0712ms total)
T3DEC 001:012 JLINK_ReadReg(R0)  returns 0x00000000 (0001ms, 0713ms total)
T3DEC 001:013 JLINK_WriteReg(R0, 0x08000000)  returns 0x00 (0000ms, 0713ms total)
T3DEC 001:013 JLINK_WriteReg(R1, 0x00004000)  returns 0x00 (0000ms, 0713ms total)
T3DEC 001:013 JLINK_WriteReg(R2, 0x000000FF)  returns 0x00 (0001ms, 0714ms total)
T3DEC 001:014 JLINK_WriteReg(R3, 0x00000000)  returns 0x00 (0000ms, 0714ms total)
T3DEC 001:014 JLINK_WriteReg(R4, 0x00000000)  returns 0x00 (0000ms, 0714ms total)
T3DEC 001:014 JLINK_WriteReg(R5, 0x00000000)  returns 0x00 (0000ms, 0714ms total)
T3DEC 001:014 JLINK_WriteReg(R6, 0x00000000)  returns 0x00 (0000ms, 0714ms total)
T3DEC 001:014 JLINK_WriteReg(R7, 0x00000000)  returns 0x00 (0000ms, 0714ms total)
T3DEC 001:014 JLINK_WriteReg(R8, 0x00000000)  returns 0x00 (0000ms, 0714ms total)
T3DEC 001:014 JLINK_WriteReg(R9, 0x20000194)  returns 0x00 (0000ms, 0714ms total)
T3DEC 001:014 JLINK_WriteReg(R10, 0x00000000)  returns 0x00 (0000ms, 0714ms total)
T3DEC 001:014 JLINK_WriteReg(R11, 0x00000000)  returns 0x00 (0000ms, 0714ms total)
T3DEC 001:014 JLINK_WriteReg(R12, 0x00000000)  returns 0x00 (0000ms, 0714ms total)
T3DEC 001:014 JLINK_WriteReg(R13 (SP), 0x20000800)  returns 0x00 (0000ms, 0714ms total)
T3DEC 001:014 JLINK_WriteReg(R14, 0x20000001)  returns 0x00 (0000ms, 0714ms total)
T3DEC 001:014 JLINK_WriteReg(R15 (PC), 0x20000020)  returns 0x00 (0000ms, 0714ms total)
T3DEC 001:014 JLINK_WriteReg(XPSR, 0x01000000)  returns 0x00 (0000ms, 0714ms total)
T3DEC 001:014 JLINK_WriteReg(MSP, 0x20000800)  returns 0x00 (0000ms, 0714ms total)
T3DEC 001:014 JLINK_WriteReg(PSP, 0x20000800)  returns 0x00 (0000ms, 0714ms total)
T3DEC 001:014 JLINK_WriteReg(CFBP, 0x00000000)  returns 0x00 (0001ms, 0715ms total)
T3DEC 001:015 JLINK_SetBPEx(Addr = 0x20000000, Type = 0xFFFFFFF2)  returns 0x00000002 (0000ms, 0715ms total)
T3DEC 001:015 JLINK_Go() (0001ms, 0716ms total)
T3DEC 001:016 JLINK_IsHalted() -- CPU_ReadMem(2 bytes @ 0x20000000)  returns TRUE (0005ms, 0721ms total)
T3DEC 001:021 JLINK_ReadReg(R15 (PC))  returns 0x20000000 (0000ms, 0716ms total)
T3DEC 001:021 JLINK_ClrBPEx(BPHandle = 0x00000002)  returns 0x00 (0000ms, 0716ms total)
T3DEC 001:021 JLINK_ReadReg(R0)  returns 0x00000001 (0000ms, 0716ms total)
T3DEC 001:021 JLINK_WriteReg(R0, 0x08000000)  returns 0x00 (0000ms, 0716ms total)
T3DEC 001:021 JLINK_WriteReg(R1, 0x00004000)  returns 0x00 (0000ms, 0716ms total)
T3DEC 001:021 JLINK_WriteReg(R2, 0x000000FF)  returns 0x00 (0000ms, 0716ms total)
T3DEC 001:021 JLINK_WriteReg(R3, 0x00000000)  returns 0x00 (0000ms, 0716ms total)
T3DEC 001:021 JLINK_WriteReg(R4, 0x00000000)  returns 0x00 (0000ms, 0716ms total)
T3DEC 001:021 JLINK_WriteReg(R5, 0x00000000)  returns 0x00 (0000ms, 0716ms total)
T3DEC 001:021 JLINK_WriteReg(R6, 0x00000000)  returns 0x00 (0001ms, 0717ms total)
T3DEC 001:022 JLINK_WriteReg(R7, 0x00000000)  returns 0x00 (0000ms, 0717ms total)
T3DEC 001:022 JLINK_WriteReg(R8, 0x00000000)  returns 0x00 (0000ms, 0717ms total)
T3DEC 001:022 JLINK_WriteReg(R9, 0x20000194)  returns 0x00 (0000ms, 0717ms total)
T3DEC 001:022 JLINK_WriteReg(R10, 0x00000000)  returns 0x00 (0000ms, 0717ms total)
T3DEC 001:022 JLINK_WriteReg(R11, 0x00000000)  returns 0x00 (0000ms, 0717ms total)
T3DEC 001:022 JLINK_WriteReg(R12, 0x00000000)  returns 0x00 (0000ms, 0717ms total)
T3DEC 001:022 JLINK_WriteReg(R13 (SP), 0x20000800)  returns 0x00 (0000ms, 0717ms total)
T3DEC 001:022 JLINK_WriteReg(R14, 0x20000001)  returns 0x00 (0000ms, 0717ms total)
T3DEC 001:022 JLINK_WriteReg(R15 (PC), 0x200000D4)  returns 0x00 (0000ms, 0717ms total)
T3DEC 001:022 JLINK_WriteReg(XPSR, 0x01000000)  returns 0x00 (0000ms, 0717ms total)
T3DEC 001:022 JLINK_WriteReg(MSP, 0x20000800)  returns 0x00 (0000ms, 0717ms total)
T3DEC 001:022 JLINK_WriteReg(PSP, 0x20000800)  returns 0x00 (0000ms, 0717ms total)
T3DEC 001:022 JLINK_WriteReg(CFBP, 0x00000000)  returns 0x00 (0000ms, 0717ms total)
T3DEC 001:022 JLINK_SetBPEx(Addr = 0x20000000, Type = 0xFFFFFFF2)  returns 0x00000003 (0000ms, 0717ms total)
T3DEC 001:022 JLINK_Go() (0002ms, 0719ms total)
T3DEC 001:024 JLINK_IsHalted()  returns FALSE (0001ms, 0720ms total)
T3DEC 001:224 JLINK_IsHalted()  returns FALSE (0000ms, 0719ms total)
T3DEC 001:255 JLINK_IsHalted()  returns FALSE (0001ms, 0720ms total)
T3DEC 001:257 JLINK_IsHalted()  returns FALSE (0001ms, 0720ms total)
T3DEC 001:259 JLINK_IsHalted()  returns FALSE (0001ms, 0720ms total)
T3DEC 001:331 JLINK_IsHalted()  returns FALSE (0001ms, 0720ms total)
T3DEC 001:333 JLINK_IsHalted()  returns FALSE (0001ms, 0720ms total)
T3DEC 001:335 JLINK_IsHalted()  returns FALSE (0001ms, 0720ms total)
T3DEC 001:337 JLINK_IsHalted()  returns FALSE (0001ms, 0720ms total)
T3DEC 001:339 JLINK_IsHalted()  returns FALSE (0001ms, 0720ms total)
T3DEC 001:341 JLINK_IsHalted()  returns FALSE (0001ms, 0720ms total)
T3DEC 001:343 JLINK_IsHalted()  returns FALSE (0001ms, 0720ms total)
T3DEC 001:345 JLINK_IsHalted()  returns FALSE (0001ms, 0720ms total)
T3DEC 001:347 JLINK_IsHalted()  returns FALSE (0001ms, 0720ms total)
T3DEC 001:349 JLINK_IsHalted()  returns FALSE (0001ms, 0720ms total)
T3DEC 001:351 JLINK_IsHalted()  returns FALSE (0000ms, 0719ms total)
T3DEC 001:352 JLINK_IsHalted()  returns FALSE (0000ms, 0719ms total)
T3DEC 001:365 JLINK_IsHalted() -- CPU_ReadMem(2 bytes @ 0x20000000)  returns TRUE (0003ms, 0722ms total)
T3DEC 001:368 JLINK_ReadReg(R15 (PC))  returns 0x20000000 (0001ms, 0720ms total)
T3DEC 001:369 JLINK_ClrBPEx(BPHandle = 0x00000003)  returns 0x00 (0000ms, 0720ms total)
T3DEC 001:369 JLINK_ReadReg(R0)  returns 0x00000000 (0000ms, 0720ms total)
T3DEC 001:370 JLINK_WriteReg(R0, 0x08004000)  returns 0x00 (0000ms, 0720ms total)
T3DEC 001:370 JLINK_WriteReg(R1, 0x00004000)  returns 0x00 (0000ms, 0720ms total)
T3DEC 001:370 JLINK_WriteReg(R2, 0x000000FF)  returns 0x00 (0000ms, 0720ms total)
T3DEC 001:370 JLINK_WriteReg(R3, 0x00000000)  returns 0x00 (0000ms, 0720ms total)
T3DEC 001:370 JLINK_WriteReg(R4, 0x00000000)  returns 0x00 (0000ms, 0720ms total)
T3DEC 001:370 JLINK_WriteReg(R5, 0x00000000)  returns 0x00 (0000ms, 0720ms total)
T3DEC 001:370 JLINK_WriteReg(R6, 0x00000000)  returns 0x00 (0000ms, 0720ms total)
T3DEC 001:370 JLINK_WriteReg(R7, 0x00000000)  returns 0x00 (0000ms, 0720ms total)
T3DEC 001:370 JLINK_WriteReg(R8, 0x00000000)  returns 0x00 (0000ms, 0720ms total)
T3DEC 001:370 JLINK_WriteReg(R9, 0x20000194)  returns 0x00 (0000ms, 0720ms total)
T3DEC 001:370 JLINK_WriteReg(R10, 0x00000000)  returns 0x00 (0000ms, 0720ms total)
T3DEC 001:370 JLINK_WriteReg(R11, 0x00000000)  returns 0x00 (0001ms, 0721ms total)
T3DEC 001:371 JLINK_WriteReg(R12, 0x00000000)  returns 0x00 (0000ms, 0721ms total)
T3DEC 001:371 JLINK_WriteReg(R13 (SP), 0x20000800)  returns 0x00 (0000ms, 0721ms total)
T3DEC 001:371 JLINK_WriteReg(R14, 0x20000001)  returns 0x00 (0000ms, 0721ms total)
T3DEC 001:371 JLINK_WriteReg(R15 (PC), 0x20000020)  returns 0x00 (0000ms, 0721ms total)
T3DEC 001:371 JLINK_WriteReg(XPSR, 0x01000000)  returns 0x00 (0000ms, 0721ms total)
T3DEC 001:371 JLINK_WriteReg(MSP, 0x20000800)  returns 0x00 (0000ms, 0721ms total)
T3DEC 001:371 JLINK_WriteReg(PSP, 0x20000800)  returns 0x00 (0000ms, 0721ms total)
T3DEC 001:371 JLINK_WriteReg(CFBP, 0x00000000)  returns 0x00 (0000ms, 0721ms total)
T3DEC 001:371 JLINK_SetBPEx(Addr = 0x20000000, Type = 0xFFFFFFF2)  returns 0x00000004 (0000ms, 0721ms total)
T3DEC 001:371 JLINK_Go() (0002ms, 0723ms total)
T3DEC 001:373 JLINK_IsHalted() -- CPU_ReadMem(2 bytes @ 0x20000000)  returns TRUE (0004ms, 0727ms total)
T3DEC 001:377 JLINK_ReadReg(R15 (PC))  returns 0x20000000 (0000ms, 0723ms total)
T3DEC 001:377 JLINK_ClrBPEx(BPHandle = 0x00000004)  returns 0x00 (0000ms, 0723ms total)
T3DEC 001:377 JLINK_ReadReg(R0)  returns 0x00000001 (0000ms, 0723ms total)
T3DEC 001:377 JLINK_WriteReg(R0, 0x08004000)  returns 0x00 (0000ms, 0723ms total)
T3DEC 001:377 JLINK_WriteReg(R1, 0x00004000)  returns 0x00 (0000ms, 0723ms total)
T3DEC 001:377 JLINK_WriteReg(R2, 0x000000FF)  returns 0x00 (0000ms, 0723ms total)
T3DEC 001:377 JLINK_WriteReg(R3, 0x00000000)  returns 0x00 (0001ms, 0724ms total)
T3DEC 001:378 JLINK_WriteReg(R4, 0x00000000)  returns 0x00 (0000ms, 0724ms total)
T3DEC 001:378 JLINK_WriteReg(R5, 0x00000000)  returns 0x00 (0000ms, 0724ms total)
T3DEC 001:378 JLINK_WriteReg(R6, 0x00000000)  returns 0x00 (0000ms, 0724ms total)
T3DEC 001:378 JLINK_WriteReg(R7, 0x00000000)  returns 0x00 (0000ms, 0724ms total)
T3DEC 001:378 JLINK_WriteReg(R8, 0x00000000)  returns 0x00 (0000ms, 0724ms total)
T3DEC 001:378 JLINK_WriteReg(R9, 0x20000194)  returns 0x00 (0000ms, 0724ms total)
T3DEC 001:378 JLINK_WriteReg(R10, 0x00000000)  returns 0x00 (0000ms, 0724ms total)
T3DEC 001:378 JLINK_WriteReg(R11, 0x00000000)  returns 0x00 (0000ms, 0724ms total)
T3DEC 001:378 JLINK_WriteReg(R12, 0x00000000)  returns 0x00 (0000ms, 0724ms total)
T3DEC 001:378 JLINK_WriteReg(R13 (SP), 0x20000800)  returns 0x00 (0000ms, 0724ms total)
T3DEC 001:378 JLINK_WriteReg(R14, 0x20000001)  returns 0x00 (0000ms, 0724ms total)
T3DEC 001:378 JLINK_WriteReg(R15 (PC), 0x200000D4)  returns 0x00 (0000ms, 0724ms total)
T3DEC 001:378 JLINK_WriteReg(XPSR, 0x01000000)  returns 0x00 (0000ms, 0724ms total)
T3DEC 001:378 JLINK_WriteReg(MSP, 0x20000800)  returns 0x00 (0000ms, 0724ms total)
T3DEC 001:378 JLINK_WriteReg(PSP, 0x20000800)  returns 0x00 (0000ms, 0724ms total)
T3DEC 001:379 JLINK_WriteReg(CFBP, 0x00000000)  returns 0x00 (0000ms, 0724ms total)
T3DEC 001:379 JLINK_SetBPEx(Addr = 0x20000000, Type = 0xFFFFFFF2)  returns 0x00000005 (0000ms, 0724ms total)
T3DEC 001:379 JLINK_Go() (0002ms, 0726ms total)
T3DEC 001:381 JLINK_IsHalted()  returns FALSE (0001ms, 0727ms total)
T3DEC 001:556 JLINK_IsHalted()  returns FALSE (0000ms, 0726ms total)
T3DEC 001:694 JLINK_IsHalted()  returns FALSE (0001ms, 0727ms total)
T3DEC 001:742 JLINK_IsHalted() -- CPU_ReadMem(2 bytes @ 0x20000000)  returns TRUE (0004ms, 0730ms total)
T3DEC 001:746 JLINK_ReadReg(R15 (PC))  returns 0x20000000 (0000ms, 0726ms total)
T3DEC 001:746 JLINK_ClrBPEx(BPHandle = 0x00000005)  returns 0x00 (0000ms, 0726ms total)
T3DEC 001:746 JLINK_ReadReg(R0)  returns 0x00000000 (0000ms, 0726ms total)
T3DEC 001:747 JLINK_WriteReg(R0, 0x08008000)  returns 0x00 (0000ms, 0726ms total)
T3DEC 001:747 JLINK_WriteReg(R1, 0x00004000)  returns 0x00 (0000ms, 0726ms total)
T3DEC 001:747 JLINK_WriteReg(R2, 0x000000FF)  returns 0x00 (0000ms, 0726ms total)
T3DEC 001:747 JLINK_WriteReg(R3, 0x00000000)  returns 0x00 (0000ms, 0726ms total)
T3DEC 001:747 JLINK_WriteReg(R4, 0x00000000)  returns 0x00 (0001ms, 0727ms total)
T3DEC 001:748 JLINK_WriteReg(R5, 0x00000000)  returns 0x00 (0000ms, 0727ms total)
T3DEC 001:748 JLINK_WriteReg(R6, 0x00000000)  returns 0x00 (0000ms, 0727ms total)
T3DEC 001:748 JLINK_WriteReg(R7, 0x00000000)  returns 0x00 (0000ms, 0727ms total)
T3DEC 001:748 JLINK_WriteReg(R8, 0x00000000)  returns 0x00 (0000ms, 0727ms total)
T3DEC 001:748 JLINK_WriteReg(R9, 0x20000194)  returns 0x00 (0000ms, 0727ms total)
T3DEC 001:748 JLINK_WriteReg(R10, 0x00000000)  returns 0x00 (0000ms, 0727ms total)
T3DEC 001:748 JLINK_WriteReg(R11, 0x00000000)  returns 0x00 (0000ms, 0727ms total)
T3DEC 001:748 JLINK_WriteReg(R12, 0x00000000)  returns 0x00 (0000ms, 0727ms total)
T3DEC 001:748 JLINK_WriteReg(R13 (SP), 0x20000800)  returns 0x00 (0000ms, 0727ms total)
T3DEC 001:748 JLINK_WriteReg(R14, 0x20000001)  returns 0x00 (0000ms, 0727ms total)
T3DEC 001:748 JLINK_WriteReg(R15 (PC), 0x20000020)  returns 0x00 (0000ms, 0727ms total)
T3DEC 001:748 JLINK_WriteReg(XPSR, 0x01000000)  returns 0x00 (0000ms, 0727ms total)
T3DEC 001:748 JLINK_WriteReg(MSP, 0x20000800)  returns 0x00 (0000ms, 0727ms total)
T3DEC 001:748 JLINK_WriteReg(PSP, 0x20000800)  returns 0x00 (0000ms, 0727ms total)
T3DEC 001:748 JLINK_WriteReg(CFBP, 0x00000000)  returns 0x00 (0000ms, 0727ms total)
T3DEC 001:748 JLINK_SetBPEx(Addr = 0x20000000, Type = 0xFFFFFFF2)  returns 0x00000006 (0000ms, 0727ms total)
T3DEC 001:749 JLINK_Go() (0002ms, 0730ms total)
T3DEC 001:751 JLINK_IsHalted() -- CPU_ReadMem(2 bytes @ 0x20000000)  returns TRUE (0004ms, 0734ms total)
T3DEC 001:755 JLINK_ReadReg(R15 (PC))  returns 0x20000000 (0000ms, 0730ms total)
T3DEC 001:755 JLINK_ClrBPEx(BPHandle = 0x00000006)  returns 0x00 (0000ms, 0730ms total)
T3DEC 001:755 JLINK_ReadReg(R0)  returns 0x00000001 (0000ms, 0730ms total)
T3DEC 001:755 JLINK_WriteReg(R0, 0x08008000)  returns 0x00 (0000ms, 0730ms total)
T3DEC 001:755 JLINK_WriteReg(R1, 0x00004000)  returns 0x00 (0000ms, 0730ms total)
T3DEC 001:755 JLINK_WriteReg(R2, 0x000000FF)  returns 0x00 (0000ms, 0730ms total)
T3DEC 001:755 JLINK_WriteReg(R3, 0x00000000)  returns 0x00 (0000ms, 0730ms total)
T3DEC 001:755 JLINK_WriteReg(R4, 0x00000000)  returns 0x00 (0000ms, 0730ms total)
T3DEC 001:755 JLINK_WriteReg(R5, 0x00000000)  returns 0x00 (0001ms, 0731ms total)
T3DEC 001:756 JLINK_WriteReg(R6, 0x00000000)  returns 0x00 (0000ms, 0731ms total)
T3DEC 001:756 JLINK_WriteReg(R7, 0x00000000)  returns 0x00 (0000ms, 0731ms total)
T3DEC 001:756 JLINK_WriteReg(R8, 0x00000000)  returns 0x00 (0000ms, 0731ms total)
T3DEC 001:756 JLINK_WriteReg(R9, 0x20000194)  returns 0x00 (0000ms, 0731ms total)
T3DEC 001:756 JLINK_WriteReg(R10, 0x00000000)  returns 0x00 (0000ms, 0731ms total)
T3DEC 001:756 JLINK_WriteReg(R11, 0x00000000)  returns 0x00 (0000ms, 0731ms total)
T3DEC 001:756 JLINK_WriteReg(R12, 0x00000000)  returns 0x00 (0000ms, 0731ms total)
T3DEC 001:756 JLINK_WriteReg(R13 (SP), 0x20000800)  returns 0x00 (0000ms, 0731ms total)
T3DEC 001:756 JLINK_WriteReg(R14, 0x20000001)  returns 0x00 (0000ms, 0731ms total)
T3DEC 001:756 JLINK_WriteReg(R15 (PC), 0x200000D4)  returns 0x00 (0000ms, 0731ms total)
T3DEC 001:756 JLINK_WriteReg(XPSR, 0x01000000)  returns 0x00 (0000ms, 0731ms total)
T3DEC 001:756 JLINK_WriteReg(MSP, 0x20000800)  returns 0x00 (0000ms, 0731ms total)
T3DEC 001:756 JLINK_WriteReg(PSP, 0x20000800)  returns 0x00 (0000ms, 0731ms total)
T3DEC 001:756 JLINK_WriteReg(CFBP, 0x00000000)  returns 0x00 (0000ms, 0731ms total)
T3DEC 001:756 JLINK_SetBPEx(Addr = 0x20000000, Type = 0xFFFFFFF2)  returns 0x00000007 (0000ms, 0731ms total)
T3DEC 001:757 JLINK_Go() (0002ms, 0734ms total)
T3DEC 001:759 JLINK_IsHalted()  returns FALSE (0001ms, 0735ms total)
T3DEC 001:785 JLINK_IsHalted()  returns FALSE (0001ms, 0735ms total)
T3DEC 001:787 JLINK_IsHalted()  returns FALSE (0001ms, 0735ms total)
T3DEC 001:789 JLINK_IsHalted()  returns FALSE (0001ms, 0735ms total)
T3DEC 001:791 JLINK_IsHalted()  returns FALSE (0001ms, 0735ms total)
T3DEC 001:793 JLINK_IsHalted()  returns FALSE (0001ms, 0735ms total)
T3DEC 001:795 JLINK_IsHalted()  returns FALSE (0001ms, 0735ms total)
T3DEC 001:853 JLINK_IsHalted()  returns FALSE (0001ms, 0735ms total)
T3DEC 001:882 JLINK_IsHalted()  returns FALSE (0001ms, 0735ms total)
T3DEC 001:884 JLINK_IsHalted()  returns FALSE (0001ms, 0735ms total)
T3DEC 001:886 JLINK_IsHalted()  returns FALSE (0000ms, 0734ms total)
T3DEC 001:887 JLINK_IsHalted()  returns FALSE (0000ms, 0734ms total)
T3DEC 001:888 JLINK_IsHalted()  returns FALSE (0000ms, 0734ms total)
T3DEC 001:889 JLINK_IsHalted()  returns FALSE (0000ms, 0734ms total)
T3DEC 001:890 JLINK_IsHalted()  returns FALSE (0000ms, 0734ms total)
T3DEC 001:891 JLINK_IsHalted()  returns FALSE (0000ms, 0734ms total)
T3DEC 001:892 JLINK_IsHalted()  returns FALSE (0000ms, 0734ms total)
T3DEC 001:893 JLINK_IsHalted()  returns FALSE (0000ms, 0734ms total)
T3DEC 001:894 JLINK_IsHalted()  returns FALSE (0000ms, 0734ms total)
T3DEC 001:895 JLINK_IsHalted()  returns FALSE (0000ms, 0734ms total)
T3DEC 001:896 JLINK_IsHalted()  returns FALSE (0000ms, 0734ms total)
T3DEC 001:897 JLINK_IsHalted()  returns FALSE (0000ms, 0734ms total)
T3DEC 001:898 JLINK_IsHalted()  returns FALSE (0000ms, 0734ms total)
T3DEC 001:910 JLINK_IsHalted()  returns FALSE (0000ms, 0734ms total)
T3DEC 001:911 JLINK_IsHalted()  returns FALSE (0001ms, 0735ms total)
T3DEC 001:913 JLINK_IsHalted()  returns FALSE (0001ms, 0735ms total)
T3DEC 001:915 JLINK_IsHalted()  returns FALSE (0001ms, 0735ms total)
T3DEC 001:995 JLINK_IsHalted()  returns FALSE (0003ms, 0737ms total)
T3DEC 001:999 JLINK_IsHalted()  returns FALSE (0000ms, 0734ms total)
T3DEC 002:001 JLINK_IsHalted()  returns FALSE (0000ms, 0735ms total)
T3DEC 002:002 JLINK_IsHalted()  returns FALSE (0000ms, 0735ms total)
T3DEC 002:005 JLINK_IsHalted()  returns FALSE (0001ms, 0736ms total)
T3DEC 002:007 JLINK_IsHalted()  returns FALSE (0000ms, 0735ms total)
T3DEC 002:008 JLINK_IsHalted()  returns FALSE (0000ms, 0735ms total)
T3DEC 002:021 JLINK_IsHalted()  returns FALSE (0000ms, 0735ms total)
T3DEC 002:022 JLINK_IsHalted()  returns FALSE (0000ms, 0735ms total)
T3DEC 002:023 JLINK_IsHalted()  returns FALSE (0001ms, 0736ms total)
T3DEC 002:101 JLINK_IsHalted() -- CPU_ReadMem(2 bytes @ 0x20000000)  returns TRUE (0004ms, 0739ms total)
T3DEC 002:105 JLINK_ReadReg(R15 (PC))  returns 0x20000000 (0000ms, 0735ms total)
T3DEC 002:105 JLINK_ClrBPEx(BPHandle = 0x00000007)  returns 0x00 (0000ms, 0735ms total)
T3DEC 002:105 JLINK_ReadReg(R0)  returns 0x00000000 (0000ms, 0735ms total)
T3DEC 002:106 JLINK_WriteReg(R0, 0x00000001)  returns 0x00 (0000ms, 0735ms total)
T3DEC 002:106 JLINK_WriteReg(R1, 0x00004000)  returns 0x00 (0000ms, 0735ms total)
T3DEC 002:106 JLINK_WriteReg(R2, 0x000000FF)  returns 0x00 (0001ms, 0736ms total)
T3DEC 002:107 JLINK_WriteReg(R3, 0x00000000)  returns 0x00 (0000ms, 0736ms total)
T3DEC 002:107 JLINK_WriteReg(R4, 0x00000000)  returns 0x00 (0000ms, 0736ms total)
T3DEC 002:107 JLINK_WriteReg(R5, 0x00000000)  returns 0x00 (0000ms, 0736ms total)
T3DEC 002:107 JLINK_WriteReg(R6, 0x00000000)  returns 0x00 (0000ms, 0736ms total)
T3DEC 002:107 JLINK_WriteReg(R7, 0x00000000)  returns 0x00 (0000ms, 0736ms total)
T3DEC 002:107 JLINK_WriteReg(R8, 0x00000000)  returns 0x00 (0000ms, 0736ms total)
T3DEC 002:107 JLINK_WriteReg(R9, 0x20000194)  returns 0x00 (0000ms, 0736ms total)
T3DEC 002:107 JLINK_WriteReg(R10, 0x00000000)  returns 0x00 (0000ms, 0736ms total)
T3DEC 002:107 JLINK_WriteReg(R11, 0x00000000)  returns 0x00 (0000ms, 0736ms total)
T3DEC 002:107 JLINK_WriteReg(R12, 0x00000000)  returns 0x00 (0000ms, 0736ms total)
T3DEC 002:107 JLINK_WriteReg(R13 (SP), 0x20000800)  returns 0x00 (0000ms, 0736ms total)
T3DEC 002:107 JLINK_WriteReg(R14, 0x20000001)  returns 0x00 (0000ms, 0736ms total)
T3DEC 002:107 JLINK_WriteReg(R15 (PC), 0x2000008C)  returns 0x00 (0000ms, 0736ms total)
T3DEC 002:107 JLINK_WriteReg(XPSR, 0x01000000)  returns 0x00 (0000ms, 0736ms total)
T3DEC 002:107 JLINK_WriteReg(MSP, 0x20000800)  returns 0x00 (0000ms, 0736ms total)
T3DEC 002:108 JLINK_WriteReg(PSP, 0x20000800)  returns 0x00 (0000ms, 0736ms total)
T3DEC 002:108 JLINK_WriteReg(CFBP, 0x00000000)  returns 0x00 (0000ms, 0736ms total)
T3DEC 002:108 JLINK_SetBPEx(Addr = 0x20000000, Type = 0xFFFFFFF2)  returns 0x00000008 (0000ms, 0736ms total)
T3DEC 002:108 JLINK_Go() (0002ms, 0738ms total)
T3DEC 002:110 JLINK_IsHalted() -- CPU_ReadMem(2 bytes @ 0x20000000)  returns TRUE (0004ms, 0742ms total)
T3DEC 002:114 JLINK_ReadReg(R15 (PC))  returns 0x20000000 (0000ms, 0738ms total)
T3DEC 002:114 JLINK_ClrBPEx(BPHandle = 0x00000008)  returns 0x00 (0000ms, 0738ms total)
T3DEC 002:114 JLINK_ReadReg(R0)  returns 0x00000000 (0000ms, 0738ms total)
T3DEC 002:179 JLINK_WriteMem(0x20000000, 0x0198 Bytes, ...) - Data: 00 BE 0A E0 0D 78 2D 06 68 40 08 24 40 00 00 D3 ... -- CPU_WriteMem(408 bytes @ 0x20000000)  returns 0x198 (0003ms, 0741ms total)
T3DEC 002:182 JLINK_WriteReg(R0, 0x08000000)  returns 0x00 (0000ms, 0741ms total)
T3DEC 002:182 JLINK_WriteReg(R1, 0x00B71B00)  returns 0x00 (0001ms, 0742ms total)
T3DEC 002:183 JLINK_WriteReg(R2, 0x00000002)  returns 0x00 (0000ms, 0742ms total)
T3DEC 002:183 JLINK_WriteReg(R3, 0x00000000)  returns 0x00 (0000ms, 0742ms total)
T3DEC 002:183 JLINK_WriteReg(R4, 0x00000000)  returns 0x00 (0000ms, 0742ms total)
T3DEC 002:183 JLINK_WriteReg(R5, 0x00000000)  returns 0x00 (0000ms, 0742ms total)
T3DEC 002:183 JLINK_WriteReg(R6, 0x00000000)  returns 0x00 (0000ms, 0742ms total)
T3DEC 002:183 JLINK_WriteReg(R7, 0x00000000)  returns 0x00 (0000ms, 0742ms total)
T3DEC 002:183 JLINK_WriteReg(R8, 0x00000000)  returns 0x00 (0000ms, 0742ms total)
T3DEC 002:183 JLINK_WriteReg(R9, 0x20000194)  returns 0x00 (0000ms, 0742ms total)
T3DEC 002:183 JLINK_WriteReg(R10, 0x00000000)  returns 0x00 (0000ms, 0742ms total)
T3DEC 002:183 JLINK_WriteReg(R11, 0x00000000)  returns 0x00 (0000ms, 0742ms total)
T3DEC 002:183 JLINK_WriteReg(R12, 0x00000000)  returns 0x00 (0000ms, 0742ms total)
T3DEC 002:183 JLINK_WriteReg(R13 (SP), 0x20000800)  returns 0x00 (0000ms, 0742ms total)
T3DEC 002:183 JLINK_WriteReg(R14, 0x20000001)  returns 0x00 (0000ms, 0742ms total)
T3DEC 002:183 JLINK_WriteReg(R15 (PC), 0x2000005E)  returns 0x00 (0000ms, 0742ms total)
T3DEC 002:183 JLINK_WriteReg(XPSR, 0x01000000)  returns 0x00 (0001ms, 0743ms total)
T3DEC 002:184 JLINK_WriteReg(MSP, 0x20000800)  returns 0x00 (0000ms, 0743ms total)
T3DEC 002:184 JLINK_WriteReg(PSP, 0x20000800)  returns 0x00 (0000ms, 0743ms total)
T3DEC 002:184 JLINK_WriteReg(CFBP, 0x00000000)  returns 0x00 (0000ms, 0743ms total)
T3DEC 002:184 JLINK_SetBPEx(Addr = 0x20000000, Type = 0xFFFFFFF2) -- CPU_ReadMem(4 bytes @ 0x20000000) -- CPU_WriteMem(4 bytes @ 0x20000000) -- CPU_ReadMem(4 bytes @ 0x20000000) -- CPU_WriteMem(4 bytes @ 0x20000000) -- CPU_ReadMem(2 bytes @ 0x20000000)  returns 0x00000009 (0005ms, 0748ms total)
T3DEC 002:189 JLINK_Go() -- CPU_WriteMem(2 bytes @ 0x20000000) (0002ms, 0750ms total)
T3DEC 002:191 JLINK_IsHalted() -- CPU_ReadMem(2 bytes @ 0x20000000)  returns TRUE (0005ms, 0755ms total)
T3DEC 002:196 JLINK_ReadReg(R15 (PC))  returns 0x20000000 (0000ms, 0750ms total)
T3DEC 002:196 JLINK_ClrBPEx(BPHandle = 0x00000009)  returns 0x00 (0000ms, 0750ms total)
T3DEC 002:196 JLINK_ReadReg(R0)  returns 0x00000000 (0000ms, 0750ms total)
T3DEC 002:197 JLINK_WriteMem(0x20000198, 0x0400 Bytes, ...) - Data: 78 3A 01 20 55 02 00 08 8F 67 00 08 91 67 00 08 ... -- CPU_WriteMem(1024 bytes @ 0x20000198)  returns 0x400 (0008ms, 0758ms total)
T3DEC 002:205 JLINK_WriteReg(R0, 0x08000000)  returns 0x00 (0000ms, 0758ms total)
T3DEC 002:205 JLINK_WriteReg(R1, 0x00000400)  returns 0x00 (0000ms, 0758ms total)
T3DEC 002:205 JLINK_WriteReg(R2, 0x20000198)  returns 0x00 (0000ms, 0758ms total)
T3DEC 002:205 JLINK_WriteReg(R3, 0x00000000)  returns 0x00 (0000ms, 0758ms total)
T3DEC 002:205 JLINK_WriteReg(R4, 0x00000000)  returns 0x00 (0000ms, 0758ms total)
T3DEC 002:205 JLINK_WriteReg(R5, 0x00000000)  returns 0x00 (0000ms, 0758ms total)
T3DEC 002:205 JLINK_WriteReg(R6, 0x00000000)  returns 0x00 (0000ms, 0758ms total)
T3DEC 002:205 JLINK_WriteReg(R7, 0x00000000)  returns 0x00 (0000ms, 0758ms total)
T3DEC 002:205 JLINK_WriteReg(R8, 0x00000000)  returns 0x00 (0000ms, 0758ms total)
T3DEC 002:205 JLINK_WriteReg(R9, 0x20000194)  returns 0x00 (0000ms, 0758ms total)
T3DEC 002:206 JLINK_WriteReg(R10, 0x00000000)  returns 0x00 (0000ms, 0759ms total)
T3DEC 002:206 JLINK_WriteReg(R11, 0x00000000)  returns 0x00 (0000ms, 0759ms total)
T3DEC 002:206 JLINK_WriteReg(R12, 0x00000000)  returns 0x00 (0000ms, 0759ms total)
T3DEC 002:206 JLINK_WriteReg(R13 (SP), 0x20000800)  returns 0x00 (0000ms, 0759ms total)
T3DEC 002:206 JLINK_WriteReg(R14, 0x20000001)  returns 0x00 (0000ms, 0759ms total)
T3DEC 002:206 JLINK_WriteReg(R15 (PC), 0x20000120)  returns 0x00 (0000ms, 0759ms total)
T3DEC 002:206 JLINK_WriteReg(XPSR, 0x01000000)  returns 0x00 (0000ms, 0759ms total)
T3DEC 002:206 JLINK_WriteReg(MSP, 0x20000800)  returns 0x00 (0000ms, 0759ms total)
T3DEC 002:206 JLINK_WriteReg(PSP, 0x20000800)  returns 0x00 (0000ms, 0759ms total)
T3DEC 002:206 JLINK_WriteReg(CFBP, 0x00000000)  returns 0x00 (0000ms, 0759ms total)
T3DEC 002:206 JLINK_SetBPEx(Addr = 0x20000000, Type = 0xFFFFFFF2)  returns 0x0000000A (0000ms, 0759ms total)
T3DEC 002:206 JLINK_Go() (0002ms, 0761ms total)
T3DEC 002:208 JLINK_IsHalted()  returns FALSE (0001ms, 0762ms total)
T3DEC 002:376 JLINK_IsHalted() -- CPU_ReadMem(2 bytes @ 0x20000000)  returns TRUE (0004ms, 0765ms total)
T3DEC 002:380 JLINK_ReadReg(R15 (PC))  returns 0x20000000 (0000ms, 0761ms total)
T3DEC 002:380 JLINK_ClrBPEx(BPHandle = 0x0000000A)  returns 0x00 (0000ms, 0761ms total)
T3DEC 002:380 JLINK_ReadReg(R0)  returns 0x00000000 (0000ms, 0761ms total)
T3DEC 002:381 JLINK_WriteMem(0x20000198, 0x0400 Bytes, ...) - Data: C1 E7 42 F0 40 02 C5 E7 42 F0 20 02 C9 E7 42 F0 ... -- CPU_WriteMem(1024 bytes @ 0x20000198)  returns 0x400 (0007ms, 0768ms total)
T3DEC 002:388 JLINK_WriteReg(R0, 0x08000400)  returns 0x00 (0000ms, 0768ms total)
T3DEC 002:389 JLINK_WriteReg(R1, 0x00000400)  returns 0x00 (0000ms, 0769ms total)
T3DEC 002:389 JLINK_WriteReg(R2, 0x20000198)  returns 0x00 (0000ms, 0769ms total)
T3DEC 002:389 JLINK_WriteReg(R3, 0x00000000)  returns 0x00 (0000ms, 0769ms total)
T3DEC 002:389 JLINK_WriteReg(R4, 0x00000000)  returns 0x00 (0000ms, 0769ms total)
T3DEC 002:389 JLINK_WriteReg(R5, 0x00000000)  returns 0x00 (0000ms, 0769ms total)
T3DEC 002:389 JLINK_WriteReg(R6, 0x00000000)  returns 0x00 (0000ms, 0769ms total)
T3DEC 002:389 JLINK_WriteReg(R7, 0x00000000)  returns 0x00 (0000ms, 0769ms total)
T3DEC 002:389 JLINK_WriteReg(R8, 0x00000000)  returns 0x00 (0000ms, 0769ms total)
T3DEC 002:389 JLINK_WriteReg(R9, 0x20000194)  returns 0x00 (0000ms, 0769ms total)
T3DEC 002:389 JLINK_WriteReg(R10, 0x00000000)  returns 0x00 (0000ms, 0769ms total)
T3DEC 002:389 JLINK_WriteReg(R11, 0x00000000)  returns 0x00 (0000ms, 0769ms total)
T3DEC 002:389 JLINK_WriteReg(R12, 0x00000000)  returns 0x00 (0000ms, 0769ms total)
T3DEC 002:389 JLINK_WriteReg(R13 (SP), 0x20000800)  returns 0x00 (0000ms, 0769ms total)
T3DEC 002:389 JLINK_WriteReg(R14, 0x20000001)  returns 0x00 (0000ms, 0769ms total)
T3DEC 002:389 JLINK_WriteReg(R15 (PC), 0x20000120)  returns 0x00 (0000ms, 0769ms total)
T3DEC 002:389 JLINK_WriteReg(XPSR, 0x01000000)  returns 0x00 (0001ms, 0770ms total)
T3DEC 002:390 JLINK_WriteReg(MSP, 0x20000800)  returns 0x00 (0000ms, 0770ms total)
T3DEC 002:390 JLINK_WriteReg(PSP, 0x20000800)  returns 0x00 (0000ms, 0770ms total)
T3DEC 002:390 JLINK_WriteReg(CFBP, 0x00000000)  returns 0x00 (0000ms, 0770ms total)
T3DEC 002:390 JLINK_SetBPEx(Addr = 0x20000000, Type = 0xFFFFFFF2)  returns 0x0000000B (0000ms, 0770ms total)
T3DEC 002:390 JLINK_Go() (0002ms, 0772ms total)
T3DEC 002:392 JLINK_IsHalted()  returns FALSE (0001ms, 0773ms total)
T3DEC 002:444 JLINK_IsHalted() -- CPU_ReadMem(2 bytes @ 0x20000000)  returns TRUE (0004ms, 0776ms total)
T3DEC 002:448 JLINK_ReadReg(R15 (PC))  returns 0x20000000 (0000ms, 0772ms total)
T3DEC 002:448 JLINK_ClrBPEx(BPHandle = 0x0000000B)  returns 0x00 (0000ms, 0772ms total)
T3DEC 002:448 JLINK_ReadReg(R0)  returns 0x00000000 (0000ms, 0772ms total)
T3DEC 002:449 JLINK_WriteMem(0x20000198, 0x0400 Bytes, ...) - Data: 14 D1 15 E0 01 68 21 F0 01 01 41 F0 02 01 01 60 ... -- CPU_WriteMem(1024 bytes @ 0x20000198)  returns 0x400 (0007ms, 0779ms total)
T3DEC 002:457 JLINK_WriteReg(R0, 0x08000800)  returns 0x00 (0000ms, 0780ms total)
T3DEC 002:457 JLINK_WriteReg(R1, 0x00000400)  returns 0x00 (0000ms, 0780ms total)
T3DEC 002:457 JLINK_WriteReg(R2, 0x20000198)  returns 0x00 (0000ms, 0780ms total)
T3DEC 002:457 JLINK_WriteReg(R3, 0x00000000)  returns 0x00 (0000ms, 0780ms total)
T3DEC 002:457 JLINK_WriteReg(R4, 0x00000000)  returns 0x00 (0000ms, 0780ms total)
T3DEC 002:457 JLINK_WriteReg(R5, 0x00000000)  returns 0x00 (0000ms, 0780ms total)
T3DEC 002:457 JLINK_WriteReg(R6, 0x00000000)  returns 0x00 (0000ms, 0780ms total)
T3DEC 002:457 JLINK_WriteReg(R7, 0x00000000)  returns 0x00 (0000ms, 0780ms total)
T3DEC 002:457 JLINK_WriteReg(R8, 0x00000000)  returns 0x00 (0000ms, 0780ms total)
T3DEC 002:457 JLINK_WriteReg(R9, 0x20000194)  returns 0x00 (0000ms, 0780ms total)
T3DEC 002:457 JLINK_WriteReg(R10, 0x00000000)  returns 0x00 (0001ms, 0781ms total)
T3DEC 002:458 JLINK_WriteReg(R11, 0x00000000)  returns 0x00 (0000ms, 0781ms total)
T3DEC 002:458 JLINK_WriteReg(R12, 0x00000000)  returns 0x00 (0000ms, 0781ms total)
T3DEC 002:458 JLINK_WriteReg(R13 (SP), 0x20000800)  returns 0x00 (0000ms, 0781ms total)
T3DEC 002:458 JLINK_WriteReg(R14, 0x20000001)  returns 0x00 (0000ms, 0781ms total)
T3DEC 002:458 JLINK_WriteReg(R15 (PC), 0x20000120)  returns 0x00 (0000ms, 0781ms total)
T3DEC 002:458 JLINK_WriteReg(XPSR, 0x01000000)  returns 0x00 (0000ms, 0781ms total)
T3DEC 002:458 JLINK_WriteReg(MSP, 0x20000800)  returns 0x00 (0000ms, 0781ms total)
T3DEC 002:458 JLINK_WriteReg(PSP, 0x20000800)  returns 0x00 (0000ms, 0781ms total)
T3DEC 002:458 JLINK_WriteReg(CFBP, 0x00000000)  returns 0x00 (0000ms, 0781ms total)
T3DEC 002:458 JLINK_SetBPEx(Addr = 0x20000000, Type = 0xFFFFFFF2)  returns 0x0000000C (0000ms, 0781ms total)
T3DEC 002:458 JLINK_Go() (0002ms, 0783ms total)
T3DEC 002:461 JLINK_IsHalted()  returns FALSE (0000ms, 0784ms total)
T3DEC 002:543 JLINK_IsHalted() -- CPU_ReadMem(2 bytes @ 0x20000000)  returns TRUE (0004ms, 0788ms total)
T3DEC 002:547 JLINK_ReadReg(R15 (PC))  returns 0x20000000 (0000ms, 0784ms total)
T3DEC 002:547 JLINK_ClrBPEx(BPHandle = 0x0000000C)  returns 0x00 (0000ms, 0784ms total)
T3DEC 002:547 JLINK_ReadReg(R0)  returns 0x00000000 (0000ms, 0784ms total)
T3DEC 002:549 JLINK_WriteMem(0x20000198, 0x0400 Bytes, ...) - Data: 00 22 01 E0 22 F4 00 22 02 60 01 61 70 47 00 29 ... -- CPU_WriteMem(1024 bytes @ 0x20000198)  returns 0x400 (0007ms, 0791ms total)
T3DEC 002:556 JLINK_WriteReg(R0, 0x08000C00)  returns 0x00 (0000ms, 0791ms total)
T3DEC 002:556 JLINK_WriteReg(R1, 0x00000400)  returns 0x00 (0000ms, 0791ms total)
T3DEC 002:556 JLINK_WriteReg(R2, 0x20000198)  returns 0x00 (0000ms, 0791ms total)
T3DEC 002:556 JLINK_WriteReg(R3, 0x00000000)  returns 0x00 (0000ms, 0791ms total)
T3DEC 002:556 JLINK_WriteReg(R4, 0x00000000)  returns 0x00 (0001ms, 0792ms total)
T3DEC 002:557 JLINK_WriteReg(R5, 0x00000000)  returns 0x00 (0000ms, 0792ms total)
T3DEC 002:557 JLINK_WriteReg(R6, 0x00000000)  returns 0x00 (0000ms, 0792ms total)
T3DEC 002:557 JLINK_WriteReg(R7, 0x00000000)  returns 0x00 (0000ms, 0792ms total)
T3DEC 002:557 JLINK_WriteReg(R8, 0x00000000)  returns 0x00 (0000ms, 0792ms total)
T3DEC 002:557 JLINK_WriteReg(R9, 0x20000194)  returns 0x00 (0000ms, 0792ms total)
T3DEC 002:557 JLINK_WriteReg(R10, 0x00000000)  returns 0x00 (0000ms, 0792ms total)
T3DEC 002:557 JLINK_WriteReg(R11, 0x00000000)  returns 0x00 (0000ms, 0792ms total)
T3DEC 002:557 JLINK_WriteReg(R12, 0x00000000)  returns 0x00 (0000ms, 0792ms total)
T3DEC 002:557 JLINK_WriteReg(R13 (SP), 0x20000800)  returns 0x00 (0000ms, 0792ms total)
T3DEC 002:557 JLINK_WriteReg(R14, 0x20000001)  returns 0x00 (0000ms, 0792ms total)
T3DEC 002:557 JLINK_WriteReg(R15 (PC), 0x20000120)  returns 0x00 (0000ms, 0792ms total)
T3DEC 002:557 JLINK_WriteReg(XPSR, 0x01000000)  returns 0x00 (0000ms, 0792ms total)
T3DEC 002:557 JLINK_WriteReg(MSP, 0x20000800)  returns 0x00 (0000ms, 0792ms total)
T3DEC 002:557 JLINK_WriteReg(PSP, 0x20000800)  returns 0x00 (0000ms, 0792ms total)
T3DEC 002:557 JLINK_WriteReg(CFBP, 0x00000000)  returns 0x00 (0001ms, 0793ms total)
T3DEC 002:558 JLINK_SetBPEx(Addr = 0x20000000, Type = 0xFFFFFFF2)  returns 0x0000000D (0000ms, 0793ms total)
T3DEC 002:558 JLINK_Go() (0002ms, 0795ms total)
T3DEC 002:560 JLINK_IsHalted()  returns FALSE (0000ms, 0795ms total)
T3DEC 002:647 JLINK_IsHalted() -- CPU_ReadMem(2 bytes @ 0x20000000)  returns TRUE (0004ms, 0799ms total)
T3DEC 002:651 JLINK_ReadReg(R15 (PC))  returns 0x20000000 (0000ms, 0795ms total)
T3DEC 002:651 JLINK_ClrBPEx(BPHandle = 0x0000000D)  returns 0x00 (0000ms, 0795ms total)
T3DEC 002:651 JLINK_ReadReg(R0)  returns 0x00000000 (0000ms, 0795ms total)
T3DEC 002:652 JLINK_WriteMem(0x20000198, 0x0400 Bytes, ...) - Data: BD 49 08 60 70 47 41 EA 82 11 5A 08 10 B5 BB 4B ... -- CPU_WriteMem(1024 bytes @ 0x20000198)  returns 0x400 (0007ms, 0802ms total)
T3DEC 002:659 JLINK_WriteReg(R0, 0x08001000)  returns 0x00 (0000ms, 0802ms total)
T3DEC 002:659 JLINK_WriteReg(R1, 0x00000400)  returns 0x00 (0001ms, 0803ms total)
T3DEC 002:660 JLINK_WriteReg(R2, 0x20000198)  returns 0x00 (0000ms, 0803ms total)
T3DEC 002:660 JLINK_WriteReg(R3, 0x00000000)  returns 0x00 (0000ms, 0803ms total)
T3DEC 002:660 JLINK_WriteReg(R4, 0x00000000)  returns 0x00 (0000ms, 0803ms total)
T3DEC 002:660 JLINK_WriteReg(R5, 0x00000000)  returns 0x00 (0000ms, 0803ms total)
T3DEC 002:660 JLINK_WriteReg(R6, 0x00000000)  returns 0x00 (0000ms, 0803ms total)
T3DEC 002:660 JLINK_WriteReg(R7, 0x00000000)  returns 0x00 (0000ms, 0803ms total)
T3DEC 002:660 JLINK_WriteReg(R8, 0x00000000)  returns 0x00 (0000ms, 0803ms total)
T3DEC 002:660 JLINK_WriteReg(R9, 0x20000194)  returns 0x00 (0000ms, 0803ms total)
T3DEC 002:660 JLINK_WriteReg(R10, 0x00000000)  returns 0x00 (0000ms, 0803ms total)
T3DEC 002:660 JLINK_WriteReg(R11, 0x00000000)  returns 0x00 (0000ms, 0803ms total)
T3DEC 002:660 JLINK_WriteReg(R12, 0x00000000)  returns 0x00 (0001ms, 0804ms total)
T3DEC 002:661 JLINK_WriteReg(R13 (SP), 0x20000800)  returns 0x00 (0000ms, 0804ms total)
T3DEC 002:661 JLINK_WriteReg(R14, 0x20000001)  returns 0x00 (0000ms, 0804ms total)
T3DEC 002:661 JLINK_WriteReg(R15 (PC), 0x20000120)  returns 0x00 (0000ms, 0804ms total)
T3DEC 002:661 JLINK_WriteReg(XPSR, 0x01000000)  returns 0x00 (0000ms, 0804ms total)
T3DEC 002:661 JLINK_WriteReg(MSP, 0x20000800)  returns 0x00 (0000ms, 0804ms total)
T3DEC 002:661 JLINK_WriteReg(PSP, 0x20000800)  returns 0x00 (0000ms, 0804ms total)
T3DEC 002:661 JLINK_WriteReg(CFBP, 0x00000000)  returns 0x00 (0000ms, 0804ms total)
T3DEC 002:661 JLINK_SetBPEx(Addr = 0x20000000, Type = 0xFFFFFFF2)  returns 0x0000000E (0000ms, 0804ms total)
T3DEC 002:661 JLINK_Go() (0002ms, 0806ms total)
T3DEC 002:663 JLINK_IsHalted()  returns FALSE (0001ms, 0807ms total)
T3DEC 002:729 JLINK_IsHalted() -- CPU_ReadMem(2 bytes @ 0x20000000)  returns TRUE (0004ms, 0810ms total)
T3DEC 002:733 JLINK_ReadReg(R15 (PC))  returns 0x20000000 (0000ms, 0806ms total)
T3DEC 002:733 JLINK_ClrBPEx(BPHandle = 0x0000000E)  returns 0x00 (0000ms, 0806ms total)
T3DEC 002:733 JLINK_ReadReg(R0)  returns 0x00000000 (0000ms, 0806ms total)
T3DEC 002:734 JLINK_WriteMem(0x20000198, 0x0400 Bytes, ...) - Data: F3 F2 52 1D 92 B2 0A 23 B2 FB F3 F2 02 F0 01 03 ... -- CPU_WriteMem(1024 bytes @ 0x20000198)  returns 0x400 (0007ms, 0813ms total)
T3DEC 002:741 JLINK_WriteReg(R0, 0x08001400)  returns 0x00 (0000ms, 0813ms total)
T3DEC 002:741 JLINK_WriteReg(R1, 0x00000400)  returns 0x00 (0000ms, 0813ms total)
T3DEC 002:741 JLINK_WriteReg(R2, 0x20000198)  returns 0x00 (0000ms, 0813ms total)
T3DEC 002:741 JLINK_WriteReg(R3, 0x00000000)  returns 0x00 (0000ms, 0813ms total)
T3DEC 002:741 JLINK_WriteReg(R4, 0x00000000)  returns 0x00 (0001ms, 0814ms total)
T3DEC 002:742 JLINK_WriteReg(R5, 0x00000000)  returns 0x00 (0000ms, 0814ms total)
T3DEC 002:742 JLINK_WriteReg(R6, 0x00000000)  returns 0x00 (0000ms, 0814ms total)
T3DEC 002:742 JLINK_WriteReg(R7, 0x00000000)  returns 0x00 (0000ms, 0814ms total)
T3DEC 002:742 JLINK_WriteReg(R8, 0x00000000)  returns 0x00 (0000ms, 0814ms total)
T3DEC 002:742 JLINK_WriteReg(R9, 0x20000194)  returns 0x00 (0000ms, 0814ms total)
T3DEC 002:742 JLINK_WriteReg(R10, 0x00000000)  returns 0x00 (0000ms, 0814ms total)
T3DEC 002:742 JLINK_WriteReg(R11, 0x00000000)  returns 0x00 (0000ms, 0814ms total)
T3DEC 002:742 JLINK_WriteReg(R12, 0x00000000)  returns 0x00 (0000ms, 0814ms total)
T3DEC 002:742 JLINK_WriteReg(R13 (SP), 0x20000800)  returns 0x00 (0000ms, 0814ms total)
T3DEC 002:742 JLINK_WriteReg(R14, 0x20000001)  returns 0x00 (0000ms, 0814ms total)
T3DEC 002:742 JLINK_WriteReg(R15 (PC), 0x20000120)  returns 0x00 (0000ms, 0814ms total)
T3DEC 002:742 JLINK_WriteReg(XPSR, 0x01000000)  returns 0x00 (0001ms, 0815ms total)
T3DEC 002:743 JLINK_WriteReg(MSP, 0x20000800)  returns 0x00 (0000ms, 0815ms total)
T3DEC 002:743 JLINK_WriteReg(PSP, 0x20000800)  returns 0x00 (0000ms, 0815ms total)
T3DEC 002:743 JLINK_WriteReg(CFBP, 0x00000000)  returns 0x00 (0000ms, 0815ms total)
T3DEC 002:743 JLINK_SetBPEx(Addr = 0x20000000, Type = 0xFFFFFFF2)  returns 0x0000000F (0000ms, 0815ms total)
T3DEC 002:743 JLINK_Go() (0002ms, 0817ms total)
T3DEC 002:745 JLINK_IsHalted()  returns FALSE (0001ms, 0818ms total)
T3DEC 002:771 JLINK_IsHalted() -- CPU_ReadMem(2 bytes @ 0x20000000)  returns TRUE (0004ms, 0821ms total)
T3DEC 002:775 JLINK_ReadReg(R15 (PC))  returns 0x20000000 (0000ms, 0817ms total)
T3DEC 002:775 JLINK_ClrBPEx(BPHandle = 0x0000000F)  returns 0x00 (0000ms, 0817ms total)
T3DEC 002:775 JLINK_ReadReg(R0)  returns 0x00000000 (0000ms, 0817ms total)
T3DEC 002:776 JLINK_WriteMem(0x20000198, 0x0400 Bytes, ...) - Data: 40 72 02 80 02 88 0A 43 02 80 70 47 00 29 01 88 ... -- CPU_WriteMem(1024 bytes @ 0x20000198)  returns 0x400 (0007ms, 0824ms total)
T3DEC 002:783 JLINK_WriteReg(R0, 0x08001800)  returns 0x00 (0000ms, 0824ms total)
T3DEC 002:783 JLINK_WriteReg(R1, 0x00000400)  returns 0x00 (0001ms, 0825ms total)
T3DEC 002:784 JLINK_WriteReg(R2, 0x20000198)  returns 0x00 (0000ms, 0825ms total)
T3DEC 002:784 JLINK_WriteReg(R3, 0x00000000)  returns 0x00 (0000ms, 0825ms total)
T3DEC 002:784 JLINK_WriteReg(R4, 0x00000000)  returns 0x00 (0000ms, 0825ms total)
T3DEC 002:784 JLINK_WriteReg(R5, 0x00000000)  returns 0x00 (0000ms, 0825ms total)
T3DEC 002:784 JLINK_WriteReg(R6, 0x00000000)  returns 0x00 (0000ms, 0825ms total)
T3DEC 002:784 JLINK_WriteReg(R7, 0x00000000)  returns 0x00 (0000ms, 0825ms total)
T3DEC 002:784 JLINK_WriteReg(R8, 0x00000000)  returns 0x00 (0000ms, 0825ms total)
T3DEC 002:784 JLINK_WriteReg(R9, 0x20000194)  returns 0x00 (0000ms, 0825ms total)
T3DEC 002:784 JLINK_WriteReg(R10, 0x00000000)  returns 0x00 (0000ms, 0825ms total)
T3DEC 002:784 JLINK_WriteReg(R11, 0x00000000)  returns 0x00 (0000ms, 0825ms total)
T3DEC 002:784 JLINK_WriteReg(R12, 0x00000000)  returns 0x00 (0000ms, 0825ms total)
T3DEC 002:784 JLINK_WriteReg(R13 (SP), 0x20000800)  returns 0x00 (0000ms, 0825ms total)
